! Created Thu May  2 19:34:18 2024
[Version] 2.0
# hz S db R 50
! 2 Port Network Data from SP1.SP block
[Number of Ports] 2
[Number of Frequencies] 535
[Reference] 50 100
[Two-Port Data Order] 12_21
[Network Data]
0       -9.52759953                  0       -0.518947507                  0       -0.518947507                  0        -9.57215235                180
30000000       -9.52541839         -1.6136781       -0.521002133        -1.65386897       -0.521002133        -1.65386897        -9.57944912         178.303051
60000000       -9.52447623        -3.22808015       -0.522772222        -3.30297489       -0.522772222        -3.30297489        -9.58693409         176.615484
90000000       -9.52447537        -4.84423748        -0.52441212        -4.94971803        -0.52441212        -4.94971803        -9.59524171         174.933628
120000000       -9.52535143        -6.46248375       -0.525957937        -6.59458782       -0.525957937        -6.59458782        -9.60452619         173.256855
150000000       -9.52711666        -8.08302699       -0.527407282        -8.23781564       -0.527407282        -8.23781564        -9.61478636           171.5849
180000000       -9.52980894        -9.70594463       -0.528745084        -9.87957663       -0.528745084        -9.87957663         -9.6259706         169.917476
210000000       -9.53347179        -11.3312038        -0.52995363        -11.5200397        -0.52995363        -11.5200397        -9.63801712         168.254205
240000000       -9.53814516        -12.9586936       -0.531017042        -13.1593761       -0.531017042        -13.1593761         -9.6508715         166.594639
270000000       -9.54386167        -14.5882571       -0.531923031        -14.7977563       -0.531923031        -14.7977563        -9.66449314         164.938303
300000000       -9.55064582        -16.2197175       -0.532663211        -16.4353443       -0.532663211        -16.4353443        -9.67885608         163.284726
330000000       -9.55851464        -17.8528973       -0.533232721        -18.0722926       -0.533232721        -18.0722926         -9.6939472         161.633466
360000000       -9.56747903          -19.48763       -0.533629573        -19.7087404       -0.533629573        -19.7087404        -9.70976358         159.984126
390000000       -9.57754515        -21.1237666       -0.533853972         -21.344812       -0.533853972         -21.344812        -9.72630979         158.336357
420000000        -9.5887158        -22.7611787        -0.53390769         -22.980617        -0.53390769         -22.980617        -9.74359563         156.689857
450000000       -9.60099153        -24.3997585       -0.533793562        -24.6162519       -0.533793562        -24.6162519        -9.76163422         155.044371
480000000       -9.61437154        -26.0394176       -0.533515089        -26.2518009       -0.533515089        -26.2518009        -9.78044063          153.39968
510000000       -9.62885437        -27.6800852       -0.533076149        -27.8873378       -0.533076149        -27.8873378        -9.80003091         151.755602
540000000       -9.64443837        -29.3217056       -0.532480787         -29.522927       -0.532480787         -29.522927         -9.8204214         150.111985
570000000       -9.66112207        -30.9642362       -0.531733077        -31.1586257       -0.531733077        -31.1586257        -9.84162826         148.468699
600000000        -9.6789044        -32.6076451       -0.530837026        -32.7944842       -0.530837026        -32.7944842        -9.86366722         146.825635
630000000       -9.69778485         -34.251909       -0.529796521        -34.4305476       -0.529796521        -34.4305476        -9.88655344         145.182701
660000000       -9.71776355        -35.8970119       -0.528615302        -36.0668565       -0.528615302        -36.0668565        -9.91030143         143.539817
690000000       -9.73884128        -37.5429434       -0.527296945        -37.7034478       -0.527296945        -37.7034478        -9.93492506         141.896916
720000000       -9.76101956        -39.1896974        -0.52584487        -39.3403553        -0.52584487        -39.3403553        -9.96043757         140.253937
750000000       -9.78430055        -40.8372716       -0.524262343        -40.9776101       -0.524262343        -40.9776101        -9.98685165         138.610829
780000000        -9.8086871        -42.4856659       -0.522552492        -42.6152413       -0.522552492        -42.6152413        -10.0141795         136.967543
810000000        -9.8341827        -44.1348824       -0.520718321        -44.2532763       -0.520718321        -44.2532763        -10.0424329         135.324038
840000000       -9.86079145        -45.7849246       -0.518762725        -45.8917407       -0.518762725        -45.8917407        -10.0716231         133.680276
870000000       -9.88851801        -47.4357967       -0.516688508         -47.530659       -0.516688508         -47.530659        -10.1017614         132.036219
900000000       -9.91736762        -49.0875038       -0.514498399        -49.1700544       -0.514498399        -49.1700544        -10.1328586         130.391837
930000000         -9.947346        -50.7400513       -0.512195059        -50.8099493       -0.512195059        -50.8099493        -10.1649255         128.747096
960000000        -9.9784594        -52.3934446       -0.509781106        -52.4503652       -0.509781106        -52.4503652        -10.1979725         127.101967
990000000       -10.0107145        -54.0476891       -0.507259115        -54.0913226       -0.507259115        -54.0913226        -10.2320103         125.456424
1.02e+09       -10.0441185          -55.70279       -0.504631636        -55.7328416       -0.504631636        -55.7328416        -10.2670493         123.810437
1.05e+09        -10.078679        -57.3587524       -0.501901199        -57.3749414       -0.501901199        -57.3749414        -10.3031001         122.163983
1.08e+09       -10.1144039        -59.0155808       -0.499070324        -59.0176407       -0.499070324        -59.0176407        -10.3401733         120.517035
1.11e+09       -10.1513016        -60.6732793       -0.496141527        -60.6609575       -0.496141527        -60.6609575        -10.3782794         118.869569
1.14e+09        -10.189381        -62.3318516       -0.493117326        -62.3049094       -0.493117326        -62.3049094        -10.4174293         117.221563
1.17e+09       -10.2286512        -63.9913009       -0.490000247        -63.9495133       -0.490000247        -63.9495133        -10.4576338         115.572993
1.2e+09       -10.2691218        -65.6516298       -0.486792825        -65.5947858       -0.486792825        -65.5947858        -10.4989041         113.923837
1.23e+09       -10.3108026        -67.3128404       -0.483497611        -67.2407426       -0.483497611        -67.2407426        -10.5412513         112.274073
1.26e+09        -10.353704        -68.9749343       -0.480117172        -68.8873993       -0.480117172        -68.8873993        -10.5846868         110.623682
1.29e+09       -10.3978365        -70.6379123       -0.476654095        -70.5347706       -0.476654095        -70.5347706        -10.6292223         108.972641
1.32e+09       -10.4432111         -72.301775       -0.473110987        -72.1828711       -0.473110987        -72.1828711        -10.6748697         107.320932
1.35e+09       -10.4898393         -73.966522       -0.469490477        -73.8317144       -0.469490477        -73.8317144        -10.7216411         105.668535
1.38e+09       -10.5377327        -75.6321526       -0.465795218        -75.4813141       -0.465795218        -75.4813141        -10.7695488         104.015431
1.41e+09       -10.5869034        -77.2986655       -0.462027885         -77.131683       -0.462027885         -77.131683        -10.8186054         102.361603
1.44e+09       -10.6373638        -78.9660586       -0.458191176        -78.7828333       -0.458191176        -78.7828333        -10.8688238         100.707032
1.47e+09       -10.6891268        -80.6343296       -0.454287814        -80.4347769       -0.454287814        -80.4347769        -10.9202173         99.0517027
1.5e+09       -10.7422055        -82.3034754       -0.450320542         -82.087525       -0.450320542         -82.087525        -10.9727993         97.3955976
1.53e+09       -10.7966135        -83.9734922       -0.446292128        -83.7410884       -0.446292128        -83.7410884        -11.0265835         95.7387012
1.56e+09       -10.8523647        -85.6443758        -0.44220536        -85.3954774        -0.44220536        -85.3954774        -11.0815842         94.0809983
1.59e+09       -10.9094735        -87.3161215       -0.438063045        -87.0507016       -0.438063045        -87.0507016        -11.1378157         92.4224744
1.62e+09       -10.9679545        -88.9887239       -0.433868011        -88.7067701       -0.433868011        -88.7067701        -11.1952927         90.7631155
1.65e+09        -11.027823        -90.6621771       -0.429623104        -90.3636917       -0.429623104        -90.3636917        -11.2540306         89.1029084
1.68e+09       -11.0890944        -92.3364746       -0.425331186        -92.0214743       -0.425331186        -92.0214743        -11.3140446         87.4418404
1.71e+09       -11.1517847        -94.0116093       -0.420995134        -93.6801254       -0.420995134        -93.6801254        -11.3753507         85.7798995
1.74e+09       -11.2159104        -95.6875736       -0.416617838        -95.3396521       -0.416617838        -95.3396521         -11.437965         84.1170744
1.77e+09       -11.2814882        -97.3643594         -0.4122022        -97.0000608         -0.4122022        -97.0000608        -11.5019043         82.4533544
1.8e+09       -11.3485354        -99.0419579       -0.407751135        -98.6613573       -0.407751135        -98.6613573        -11.5671854         80.7887297
1.83e+09       -11.4170698         -100.72036       -0.403267561        -100.323547       -0.403267561        -100.323547        -11.6338259         79.1231909
1.86e+09       -11.4871097        -102.399555       -0.398754406        -101.986634       -0.398754406        -101.986634        -11.7018436         77.4567295
1.89e+09       -11.5586736        -104.079534       -0.394214603        -103.650624       -0.394214603        -103.650624        -11.7712567         75.7893378
1.92e+09       -11.6317809        -105.760285       -0.389651083        -105.315519       -0.389651083        -105.315519         -11.842084         74.1210086
1.95e+09       -11.7064512        -107.441796       -0.385066783        -106.981323       -0.385066783        -106.981323        -11.9143447         72.4517356
1.98e+09       -11.7827048        -109.124056       -0.380464635        -108.648039       -0.380464635        -108.648039        -11.9880584         70.7815132
2.01e+09       -11.8605625        -110.807051       -0.375847567        -110.315667       -0.375847567        -110.315667        -12.0632452         69.1103367
2.04e+09       -11.9400457        -112.490769       -0.371218502        -111.984211       -0.371218502        -111.984211        -12.1399259         67.4382018
2.07e+09       -12.0211763        -114.175196       -0.366580356         -113.65367       -0.366580356         -113.65367        -12.2181217         65.7651055
2.1e+09       -12.1039768        -115.860318       -0.361936031        -115.324044       -0.361936031        -115.324044        -12.2978541         64.0910452
2.13e+09       -12.1884705        -117.546119       -0.357288421        -116.995334       -0.357288421        -116.995334        -12.3791455         62.4160193
2.16e+09        -12.274681        -119.232584       -0.352640401        -118.667539       -0.352640401        -118.667539        -12.4620187         60.7400269
2.19e+09       -12.3626329        -120.919697       -0.347994831        -120.340657       -0.347994831        -120.340657        -12.5464972          59.063068
2.22e+09       -12.4523512        -122.607441       -0.343354552        -122.014687       -0.343354552        -122.014687         -12.632605         57.3851434
2.25e+09        -12.543862          -124.2958       -0.338722382        -123.689625       -0.338722382        -123.689625        -12.7203667         55.7062548
2.28e+09       -12.6371916        -125.984755       -0.334101115        -125.365469       -0.334101115        -125.365469        -12.8098076         54.0264047
2.31e+09       -12.7323675        -127.674288        -0.32949352        -127.042216        -0.32949352        -127.042216        -12.9009539         52.3455964
2.34e+09       -12.8294179        -129.364381       -0.324902337        -128.719861       -0.324902337        -128.719861        -12.9938322         50.6638342
2.37e+09       -12.9283716        -131.055013       -0.320330273          -130.3984       -0.320330273          -130.3984          -13.08847         48.9811233
2.4e+09       -13.0292586        -132.746166       -0.315780005        -132.077827       -0.315780005        -132.077827        -13.1848954         47.2974697
2.43e+09       -13.1321095        -134.437817       -0.311254173        -133.758138       -0.311254173        -133.758138        -13.2831375         45.6128803
2.46e+09        -13.236956        -136.129947       -0.306755379        -135.439326       -0.306755379        -135.439326        -13.3832262         43.9273629
2.49e+09       -13.3438307        -137.822533       -0.302286185        -137.121384       -0.302286185        -137.121384        -13.4851921         42.2409265
2.52e+09       -13.4527673        -139.515553       -0.297849113        -138.804305       -0.297849113        -138.804305        -13.5890668         40.5535807
2.55e+09       -13.5638004        -141.208984       -0.293446637        -140.488082       -0.293446637        -140.488082        -13.6948828         38.8653362
2.58e+09       -13.6769659        -142.902803       -0.289081188        -142.172707       -0.289081188        -142.172707        -13.8026737         37.1762046
2.61e+09       -13.7923006        -144.596985       -0.284755146        -143.858171       -0.284755146        -143.858171         -13.912474         35.4861987
2.64e+09       -13.9098428        -146.291507       -0.280470843        -145.544466       -0.280470843        -145.544466        -14.0243192         33.7953321
2.67e+09       -14.0296319        -147.986342       -0.276230554        -147.231581       -0.276230554        -147.231581        -14.1382462         32.1036194
2.7e+09       -14.1517087        -149.681465       -0.272036505        -148.919508       -0.272036505        -148.919508        -14.2542927         30.4110764
2.73e+09       -14.2761153        -151.376849        -0.26789086        -150.608236        -0.26789086        -150.608236        -14.3724978         28.7177199
2.76e+09       -14.4028954        -153.072467       -0.263795727        -152.297754       -0.263795727        -152.297754         -14.492902         27.0235675
2.79e+09       -14.5320941        -154.768292       -0.259753155        -153.988052       -0.259753155        -153.988052        -14.6155471         25.3286384
2.82e+09       -14.6637583        -156.464295       -0.255765128        -155.679118       -0.255765128        -155.679118        -14.7404761         23.6329526
2.85e+09       -14.7979364        -158.160447       -0.251833567        -157.370941       -0.251833567        -157.370941        -14.8677337         21.9365312
2.88e+09       -14.9346789        -159.856718       -0.247960329        -159.063508       -0.247960329        -159.063508        -14.9973661         20.2393966
2.91e+09       -15.0740379        -161.553078       -0.244147203        -160.756807       -0.244147203        -160.756807        -15.1294213         18.5415725
2.94e+09       -15.2160676        -163.249495       -0.240395909        -162.450826       -0.240395909        -162.450826        -15.2639488         16.8430837
2.97e+09       -15.3608245        -164.945937       -0.236708096        -164.145551       -0.236708096        -164.145551        -15.4010001         15.1439563
3e+09       -15.5083671        -166.642372       -0.233085345        -165.840969       -0.233085345        -165.840969        -15.5406285         13.4442178
3.03e+09       -15.6587564        -168.338767       -0.229529162        -167.537067       -0.229529162        -167.537067        -15.6828896          11.743897
3.06e+09        -15.812056        -170.035086       -0.226040979         -169.23383       -0.226040979         -169.23383        -15.8278409         10.0430242
3.09e+09        -15.968332        -171.731294       -0.222622154        -170.931246       -0.222622154        -170.931246        -15.9755423         8.34163107
3.12e+09       -16.1276534        -173.427355       -0.219273969        -172.629299       -0.219273969        -172.629299        -16.1260563         6.63975096
3.15e+09       -16.2900923        -175.123232       -0.215997629        -174.327976       -0.215997629        -174.327976        -16.2794476         4.93741875
3.18e+09        -16.455724        -176.818886       -0.212794261        -176.027261       -0.212794261        -176.027261         -16.435784         3.23467106
3.21e+09       -16.6246272        -178.514278       -0.209664916         -177.72714       -0.209664916         -177.72714         -16.595136         1.53154626
3.24e+09       -16.7968841         179.790633       -0.206610564        -179.427598       -0.206610564        -179.427598        -16.7575774       -0.171915387
3.27e+09       -16.9725811          178.09589       -0.203632095          178.87138       -0.203632095          178.87138         -16.923185        -1.87567163
3.3e+09       -17.1518086         176.401536       -0.200730321         177.169809       -0.200730321         177.169809        -17.0920393        -3.57967812
3.33e+09       -17.3346613         174.707615       -0.197905973         175.467705       -0.197905973         175.467705        -17.2642246        -5.28388828
3.36e+09       -17.5212389         173.014175       -0.195159702         173.765083       -0.195159702         173.765083        -17.4398291        -6.98825312
3.39e+09       -17.7116463         171.321265       -0.192492078         172.061957       -0.192492078         172.061957        -17.6189452        -8.69272116
3.42e+09       -17.9059935         169.628934       -0.189903591         170.358344       -0.189903591         170.358344        -17.8016701        -10.3972381
3.45e+09       -18.1043968         167.937236       -0.187394651         168.654259       -0.187394651         168.654259        -17.9881058        -12.1017468
3.48e+09       -18.3069786         166.246226       -0.184965588         166.949717       -0.184965588         166.949717        -18.1783595         -13.806187
3.51e+09       -18.5138684         164.555961       -0.182616652         165.244734       -0.182616652         165.244734         -18.372544        -15.5104948
3.54e+09       -18.7252029         162.866503       -0.180348013         163.539324       -0.180348013         163.539324        -18.5707785        -17.2146027
3.57e+09       -18.9411268         161.177915       -0.178159764         161.833504       -0.178159764         161.833504        -18.7731885        -18.9184393
3.6e+09       -19.1617937         159.490264       -0.176051918         160.127288       -0.176051918         160.127288        -18.9799065        -20.6219286
3.63e+09       -19.3873663         157.803623       -0.174024411         158.420692       -0.174024411         158.420692        -19.1910729        -22.3249899
