! Created Thu May  2 20:12:39 2024
[Version] 2.0
# hz S db R 50
! 2 Port Network Data from SP1.SP block
[Number of Ports] 2
[Number of Frequencies] 535
[Reference] 50 100
[Two-Port Data Order] 12_21
[Network Data]
0       -9.52769187                  0       -0.518901221                  0       -0.518901221                  0        -9.57196674                180
30000000       -9.52541304        -1.60581638       -0.521002803        -1.65054876       -0.521002803        -1.65054876        -9.57944373         178.301812
60000000       -9.52445488        -3.21236661       -0.522774888        -3.29634257       -0.522774888        -3.29634257        -9.58691261         176.612994
90000000       -9.52442753        -4.82067095       -0.524418093        -4.93977848       -0.524418093        -4.93977848        -9.59519354         174.929871
120000000       -9.52526671        -6.43106025       -0.525968505        -6.58134493       -0.525968505        -6.58134493        -9.60444081         173.251813
150000000       -9.52698478        -8.04374073       -0.527423712        -8.22127268       -0.527423712        -8.22127268        -9.61465336         171.578554
180000000       -9.52961974        -9.65878834       -0.528768622        -9.85973642       -0.528768622        -9.85973642        -9.62577964         169.909807
210000000       -9.53321519        -11.2761689         -0.5299855        -11.4969046         -0.5299855        -11.4969046        -9.63775792         168.245194
240000000       -9.53781115          -12.89577       -0.531058449        -13.1329483       -0.531058449        -13.1329483        -9.65053383         166.584268
270000000       -9.54344028        -14.5174335        -0.53197516        -14.7680375        -0.53197516        -14.7680375         -9.6640668         164.926552
300000000       -9.55012712        -16.1409815       -0.532727229        -16.4023358       -0.532727229        -16.4023358        -9.67833087         163.271575
330000000       -9.55788872        -17.7662353       -0.533309774        -18.0359958       -0.533309774        -18.0359958        -9.69331292         161.618897
360000000       -9.56673596        -19.3930271       -0.533720792         -19.669156       -0.533720792         -19.669156        -9.70901002          159.96812
390000000       -9.57667501         -21.021207       -0.533960465        -21.3019405       -0.533960465        -21.3019405        -9.72542674         158.318893
420000000       -9.58770866        -22.6506454       -0.534030546        -22.9344588       -0.534030546        -22.9344588        -9.74257282         156.670917
450000000       -9.59983744        -24.2812336       -0.533933846        -24.5668071       -0.533933846        -24.5668071        -9.76046137         155.023933
480000000       -9.61306052        -25.9128821       -0.533673847        -26.1990692       -0.533673847        -26.1990692        -9.77910743         153.377725
510000000       -9.62737641        -27.5455192         -0.5332544        -27.8313187         -0.5332544        -27.8313187        -9.79852701         151.732111
540000000       -9.64278343        -29.1790883       -0.532679529        -29.4636199       -0.532679529        -29.4636199        -9.81873639         150.086936
570000000       -9.65928006        -30.8135457       -0.531953279        -31.0960296       -0.531953279        -31.0960296        -9.83975169         148.442072
600000000       -9.67686519        -32.4488586       -0.531079631        -32.7285979       -0.531079631        -32.7285979         -9.8615886         146.797408
630000000       -9.69553827        -34.0850028       -0.530062445        -34.3613696       -0.530062445        -34.3613696        -9.88426221         145.152853
660000000       -9.71529934        -35.7219613       -0.528905432        -35.9943852       -0.528905432        -35.9943852        -9.90778697         143.508327
690000000       -9.73614916        -37.3597228        -0.52761214        -37.6276813        -0.52761214        -37.6276813        -9.93217669         141.863761
720000000       -9.75808916        -38.9982803       -0.526185955        -39.2612915       -0.526185955        -39.2612915        -9.95744453         140.219095
750000000       -9.78112144        -40.6376305       -0.524630115        -40.8952468       -0.524630115        -40.8952468        -9.98360312         138.574277
780000000       -9.80524878        -42.2777723       -0.522947714        -42.5295761       -0.522947714        -42.5295761        -10.0106646         136.929258
810000000       -9.83047458        -43.9187069       -0.521141723        -44.1643065       -0.521141723        -44.1643065        -10.0386405         135.283996
840000000       -9.85680285        -45.5604367       -0.519215005        -45.7994634       -0.519215005        -45.7994634        -10.0675423         133.638452
870000000       -9.88423818        -47.2029651       -0.517170328        -47.4350713       -0.517170328        -47.4350713         -10.097381          131.99259
900000000       -9.91278569        -48.8462962       -0.515010384        -49.0711531       -0.515010384        -49.0711531        -10.1281673         130.346377
930000000       -9.94245102        -50.4904343       -0.512737803        -50.7077311       -0.512737803        -50.7077311        -10.1599118         128.699779
960000000       -9.97324029        -52.1353839       -0.510355162        -52.3448266       -0.510355162        -52.3448266         -10.192625         127.052769
990000000       -10.0051601        -53.7811493       -0.507865001        -53.9824601       -0.507865001        -53.9824601        -10.2263174         125.405316
1.02e+09       -10.0382175        -55.4277348       -0.505269831        -55.6206514       -0.505269831        -55.6206514        -10.2609993         123.757393
1.05e+09       -10.0724199        -57.0751442       -0.502572146        -57.2594197       -0.502572146        -57.2594197         -10.296681         122.108974
1.08e+09       -10.1077752        -58.7233812       -0.499774425        -58.8987834       -0.499774425        -58.8987834        -10.3333732         120.460034
1.11e+09       -10.1442917        -60.3724487       -0.496879147        -60.5387607       -0.496879147        -60.5387607        -10.3710862         118.810546
1.14e+09       -10.1819779        -62.0223493        -0.49388879        -62.1793689        -0.49388879        -62.1793689        -10.4098307         117.160488
1.17e+09        -10.220843        -63.6730852       -0.490805838         -63.820625       -0.490805838         -63.820625        -10.4496174         115.509835
1.2e+09       -10.2608962        -65.3246578       -0.487632788        -65.4625451       -0.487632788        -65.4625451        -10.4904573         113.858565
1.23e+09       -10.3021474        -66.9770681       -0.484372149        -67.1051453       -0.484372149        -67.1051453        -10.5323613         112.206656
1.26e+09       -10.3446067        -68.6303164       -0.481026449        -68.7484409       -0.481026449        -68.7484409        -10.5753408         110.554085
1.29e+09       -10.3882844        -70.2844025       -0.477598232        -70.3924467       -0.477598232        -70.3924467        -10.6194073         108.900831
1.32e+09       -10.4331915        -71.9393256       -0.474090064         -72.037177       -0.474090064         -72.037177        -10.6645723         107.246873
1.35e+09        -10.479339        -73.5950842       -0.470504533        -73.6826457       -0.470504533        -73.6826457        -10.7108478         105.592192
1.38e+09       -10.5267384        -75.2516763       -0.466844251        -75.3288661       -0.466844251        -75.3288661         -10.758246         103.936768
1.41e+09       -10.5754017        -76.9090993       -0.463111851        -76.9758511       -0.463111851        -76.9758511        -10.8067793         102.280581
1.44e+09       -10.6253411        -78.5673499        -0.45930999        -78.6236129        -0.45930999        -78.6236129        -10.8564604         100.623613
1.47e+09       -10.6765691        -80.2264242       -0.455441347        -80.2721633       -0.455441347        -80.2721633        -10.9073022         98.9658461
1.5e+09       -10.7290987        -81.8863179       -0.451508627        -81.9215138       -0.451508627        -81.9215138         -10.959318         97.3072621
1.53e+09       -10.7829432        -83.5470257       -0.447514554        -83.5716749       -0.447514554        -83.5716749        -11.0125213         95.6478443
1.56e+09       -10.8381162        -85.2085421       -0.443461875        -85.2226571       -0.443461875        -85.2226571        -11.0669261         93.9875763
1.59e+09        -10.894632        -86.8708607       -0.439353357        -86.8744699       -0.439353357        -86.8744699        -11.1225465         92.3264422
1.62e+09       -10.9525048        -88.5339747       -0.435191788        -88.5271227       -0.435191788        -88.5271227         -11.179397         90.6644266
1.65e+09       -11.0117496        -90.1978765       -0.430979971        -90.1806241       -0.430979971        -90.1806241        -11.2374925         89.0015149
1.68e+09       -11.0723816        -91.8625581       -0.426720729        -91.8349822       -0.426720729        -91.8349822        -11.2968481         87.3376928
1.71e+09       -11.1344165        -93.5280107       -0.422416899        -93.4902047       -0.422416899        -93.4902047        -11.3574796         85.6729468
1.74e+09       -11.1978703        -95.1942249       -0.418071333        -95.1462985       -0.418071333        -95.1462985        -11.4194026          84.007264
1.77e+09       -11.2627596        -96.8611909       -0.413686893        -96.8032703       -0.413686893        -96.8032703        -11.4826337          82.340632
1.8e+09       -11.3291013         -98.528898       -0.409266455        -98.4611259       -0.409266455        -98.4611259        -11.5471894         80.6730391
1.83e+09       -11.3969128        -100.197335         -0.4048129        -100.119871         -0.4048129        -100.119871         -11.613087         79.0044742
1.86e+09       -11.4662119         -101.86649        -0.40032912         -101.77951        -0.40032912         -101.77951        -11.6803437          77.334927
1.89e+09        -11.537017        -103.536351       -0.395818008        -103.440047       -0.395818008        -103.440047        -11.7489777         75.6643875
1.92e+09        -11.609347        -105.206904       -0.391282464        -105.101487       -0.391282464        -105.101487        -11.8190073         73.9928466
1.95e+09       -11.6832211        -106.878136       -0.386725387        -106.763833       -0.386725387        -106.763833        -11.8904512         72.3202958
1.98e+09       -11.7586591        -108.550033       -0.382149674        -108.427086       -0.382149674        -108.427086        -11.9633288         70.6467274
2.01e+09       -11.8356815        -110.222579       -0.377558222         -110.09125       -0.377558222         -110.09125        -12.0376598          68.972134
2.04e+09        -11.914309        -111.895759       -0.372953921        -111.756326       -0.372953921        -111.756326        -12.1134645         67.2965094
2.07e+09       -11.9945633        -113.569556       -0.368339653        -113.422314       -0.368339653        -113.422314        -12.1907635         65.6198475
2.1e+09       -12.0764663        -115.243954       -0.363718293        -115.089216       -0.363718293        -115.089216        -12.2695781         63.9421434
2.13e+09       -12.1600407        -116.918934       -0.359092703        -116.757031       -0.359092703        -116.757031        -12.3499302         62.2633927
2.16e+09       -12.2453097        -118.594479       -0.354465731        -118.425759       -0.354465731        -118.425759         -12.431842         60.5835916
2.19e+09       -12.3322972        -120.270569       -0.349840209        -120.095398       -0.349840209        -120.095398        -12.5153366          58.902737
2.22e+09       -12.4210279        -121.947185       -0.345218952        -121.765947       -0.345218952        -121.765947        -12.6004373         57.2208268
2.25e+09        -12.511527        -123.624307       -0.340604753        -123.437404       -0.340604753        -123.437404        -12.6871684         55.5378592
2.28e+09       -12.6038203        -125.301912       -0.336000382        -125.109765       -0.336000382        -125.109765        -12.7755547         53.8538335
2.31e+09       -12.6979347         -126.97998       -0.331408586        -126.783028       -0.331408586        -126.783028        -12.8656214         52.1687494
2.34e+09       -12.7938976        -128.658487       -0.326832083        -128.457189       -0.326832083        -128.457189        -12.9573948         50.4826075
2.37e+09       -12.8917372        -130.337411       -0.322273561        -130.132243       -0.322273561        -130.132243        -13.0509017         48.7954092
2.4e+09       -12.9914827        -132.016727       -0.317735678        -131.808185       -0.317735678        -131.808185        -13.1461696         47.1071563
2.43e+09        -13.093164        -133.696411       -0.313221057         -133.48501       -0.313221057         -133.48501        -13.2432268         45.4178517
2.46e+09       -13.1968118        -135.376437       -0.308732284        -135.162713       -0.308732284        -135.162713        -13.3421025         43.7274988
2.49e+09       -13.3024581        -137.056778       -0.304271908        -136.841287       -0.304271908        -136.841287        -13.4428266         42.0361019
2.52e+09       -13.4101356        -138.737408       -0.299842437        -138.520725       -0.299842437        -138.520725        -13.5454299         40.3436657
2.55e+09       -13.5198779        -140.418298       -0.295446334         -140.20102       -0.295446334         -140.20102        -13.6499442         38.6501962
2.58e+09         -13.63172         -142.09942       -0.291086022        -141.882164       -0.291086022        -141.882164         -13.756402         36.9556995
2.61e+09       -13.7456978        -143.780743       -0.286763871        -143.564149       -0.286763871        -143.564149         -13.864837         35.2601829
2.64e+09       -13.8618484        -145.462238       -0.282482206        -145.246966       -0.282482206        -145.246966        -13.9752839         33.5636542
2.67e+09       -13.9802101        -147.143872         -0.2782433        -146.930606         -0.2782433        -146.930606        -14.0877785         31.8661221
2.7e+09       -14.1008225        -148.825613       -0.274049371        -148.615061       -0.274049371        -148.615061        -14.2023575         30.1675959
2.73e+09       -14.2237266        -150.507428       -0.269902586        -150.300319       -0.269902586        -150.300319         -14.319059         28.4680857
2.76e+09       -14.3489646        -152.189283       -0.265805051         -151.98637       -0.265805051         -151.98637        -14.4379224         26.7676024
2.79e+09       -14.4765804        -153.871141       -0.261758816        -153.673205       -0.261758816        -153.673205         -14.558988         25.0661574
2.82e+09       -14.6066194        -155.552967       -0.257765868        -155.360811       -0.257765868        -155.360811        -14.6822979         23.3637632
2.85e+09       -14.7391285        -157.234722       -0.253828135        -157.049178       -0.253828135        -157.049178        -14.8078955         21.6604327
2.88e+09       -14.8741565        -158.916368       -0.249947478        -158.738294       -0.249947478        -158.738294        -14.9358255         19.9561799
2.91e+09        -15.011754        -160.597865       -0.246125694        -160.428145       -0.246125694        -160.428145        -15.0661344         18.2510192
2.94e+09       -15.1519732        -162.279171       -0.242364513        -162.118722       -0.242364513        -162.118722        -15.1988703          16.544966
2.97e+09       -15.2948689        -163.960244       -0.238665597        -163.810009       -0.238665597        -163.810009        -15.3340831         14.8380363
3e+09       -15.4404974        -165.641039       -0.235030538        -165.501995       -0.235030538        -165.501995        -15.4718244         13.1302469
3.03e+09       -15.5889178        -167.321511       -0.231460856        -167.194666       -0.231460856        -167.194666         -15.612148         11.4216155
3.06e+09       -15.7401912        -169.001612          -0.227958        -168.888009          -0.227958        -168.888009        -15.7551095          9.7121604
3.09e+09       -15.8943815        -170.681293       -0.224523346         -170.58201       -0.224523346         -170.58201        -15.9007669         8.00190078
3.12e+09       -16.0515551        -172.360504       -0.221158194        -172.276655       -0.221158194        -172.276655        -16.0491804         6.29085657
3.15e+09       -16.2117815        -174.039193       -0.217863771        -173.971929       -0.217863771        -173.971929        -16.2004127         4.57904854
3.18e+09       -16.3751329        -175.717303       -0.214641225        -175.667819       -0.214641225        -175.667819        -16.3545291         2.86649824
3.21e+09        -16.541685        -177.394778       -0.211491629         -177.36431       -0.211491629         -177.36431        -16.5115976         1.15322809
3.24e+09        -16.711517        -179.071558       -0.208415979        -179.061388       -0.208415979        -179.061388        -16.6716893       -0.560738638
3.27e+09       -16.8847114         179.252417       -0.205415192         179.240964       -0.205415192         179.240964        -16.8348783        -2.27537781
3.3e+09        -17.061355         177.577215       -0.202490107         177.542759       -0.202490107         177.542759         -17.001242        -3.99066439
3.33e+09       -17.2415387         175.902901       -0.199641483         175.844012       -0.199641483         175.844012        -17.1708613        -5.70657237
3.36e+09       -17.4253577         174.229547       -0.196870001         174.144739       -0.196870001         174.144739        -17.3438212        -7.42307482
3.39e+09       -17.6129122         172.557229       -0.194176263         172.444955       -0.194176263         172.444955        -17.5202104        -9.14014378
3.42e+09       -17.8043075         170.886024       -0.191560792         170.744674       -0.191560792         170.744674        -17.7001221        -10.8577502
3.45e+09       -17.9996543         169.216016       -0.189024029         169.043913       -0.189024029         169.043913         -17.883654        -12.5758641
3.48e+09       -18.1990694         167.547292       -0.186566341         167.342686       -0.186566341         167.342686        -18.0709089         -14.294454
3.51e+09       -18.4026761         165.879945       -0.184188011         165.641009       -0.184188011         165.641009        -18.2619948        -16.0134875
3.54e+09       -18.6106042         164.214072       -0.181889246         163.938897       -0.181889246         163.938897        -18.4570257        -17.7329308
3.57e+09       -18.8229913          162.54978       -0.179670177         162.236364       -0.179670177         162.236364        -18.6561214        -19.4527487
3.6e+09       -19.0399829         160.887178       -0.177530855         160.533426       -0.177530855         160.533426        -18.8594085        -21.1729043
3.63e+09       -19.2617333         159.226386       -0.175471254         158.830099       -0.175471254         158.830099        -19.0670207        -22.8933596
