! Created Thu May  2 22:41:21 2024
[Version] 2.0
# hz S ma R 50
! 2 Port Network Data from SP1.SP block
[Number of Ports] 2
[Number of Frequencies] 535
[Reference] 50 100
[Two-Port Data Order] 12_21
[Network Data]
0       0.333899222                  0        0.942008755                  0        0.942008755                  0        0.332201557                180
30000000       0.333986835        -1.60581638         0.94178086        -1.65054876         0.94178086        -1.65054876        0.331915714         178.301812
60000000        0.33402368        -3.21236661        0.941588738        -3.29634257        0.941588738        -3.29634257        0.331630426         176.612994
90000000       0.334024731        -4.82067095        0.941410625        -4.93977848        0.941410625        -4.93977848        0.331314408         174.929871
120000000       0.333992462        -6.43106025          0.9412426        -6.58134493          0.9412426        -6.58134493        0.330961868         173.251813
150000000       0.333926404        -8.04374073         0.94108492        -8.22127268         0.94108492        -8.22127268        0.330572964         171.578554
180000000       0.333825119        -9.65878834        0.940939215        -9.85973642        0.940939215        -9.85973642        0.330149784         169.909807
210000000       0.333686964        -11.2761689        0.940807401        -11.4969046        0.940807401        -11.4969046        0.329694805         168.245194
240000000       0.333510447          -12.89577        0.940691192        -13.1329483        0.940691192        -13.1329483         0.32921022         166.584268
270000000       0.333294376        -14.5174335        0.940591916        -14.7680375        0.940591916        -14.7680375        0.328697696         164.926552
300000000       0.333037888        -16.1409815        0.940510479        -16.4023358        0.940510479        -16.4023358        0.328158348         163.271575
330000000       0.332740423        -17.7662353        0.940447403        -18.0359958        0.940447403        -18.0359958        0.327592804         161.618897
360000000       0.332401674        -19.3930271        0.940402901         -19.669156        0.940402901         -19.669156        0.327001315          159.96812
390000000       0.332021532         -21.021207        0.940376953        -21.3019405        0.940376953        -21.3019405        0.326383852         158.318893
420000000       0.331600034        -22.6506454        0.940369366        -22.9344588        0.940369366        -22.9344588          0.3257402         156.670917
450000000       0.331137319        -24.2812336        0.940379835        -24.5668071        0.940379835        -24.5668071         0.32507003         155.023933
480000000       0.330633591        -25.9128821        0.940407984        -26.1990692        0.940407984        -26.1990692        0.324372949         153.377725
510000000       0.330089097        -27.5455192        0.940453398        -27.8313187        0.940453398        -27.8313187        0.323648538         151.732111
540000000       0.329504104        -29.1790883        0.940515644        -29.4636199        0.940515644        -29.4636199        0.322896383         150.086936
570000000       0.328878889        -30.8135457        0.940594286        -31.0960296        0.940594286        -31.0960296        0.322116088         148.442072
600000000       0.328213727        -32.4488586        0.940688898        -32.7285979        0.940688898        -32.7285979        0.321307283         146.797408
630000000       0.327508885        -34.0850028        0.940799066        -34.3613696        0.940799066        -34.3613696        0.320469638         145.152853
660000000       0.326764624        -35.7219613        0.940924395        -35.9943852        0.940924395        -35.9943852        0.319602856         143.508327
690000000       0.325981191        -37.3597228        0.941064505        -37.6276813        0.941064505        -37.6276813         0.31870668         141.863761
720000000       0.325158822        -38.9982803        0.941219036        -39.2612915        0.941219036        -39.2612915        0.317780887         140.219095
750000000       0.324297744        -40.6376305        0.941387645        -40.8952468        0.941387645        -40.8952468        0.316825292         138.574277
780000000       0.323398172        -42.2777723        0.941570003        -42.5295761        0.941570003        -42.5295761        0.315839739         136.929258
810000000       0.322460313        -43.9187069        0.941765797        -44.1643065        0.941765797        -44.1643065        0.314824102         135.283996
840000000       0.321484366        -45.5604367        0.941974725        -45.7994634        0.941974725        -45.7994634        0.313778284         133.638452
870000000       0.320470524        -47.2029651        0.942196493        -47.4350713        0.942196493        -47.4350713         0.31270221          131.99259
900000000       0.319418978        -48.8462962        0.942430821        -49.0711531        0.942430821        -49.0711531         0.31159583         130.346377
930000000       0.318329912        -50.4904343        0.942677432        -50.7077311        0.942677432        -50.7077311        0.310459112         128.699779
960000000       0.317203511        -52.1353839        0.942936054        -52.3448266        0.942936054        -52.3448266        0.309292045         127.052769
990000000       0.316039958        -53.7811493        0.943206424        -53.9824601        0.943206424        -53.9824601        0.308094632         125.405316
1.02e+09       0.314839436        -55.4277348        0.943488277        -55.6206514        0.943488277        -55.6206514        0.306866894         123.757393
1.05e+09       0.313602131        -57.0751442        0.943781354        -57.2594197        0.943781354        -57.2594197        0.305608865         122.108974
1.08e+09        0.31232823        -58.7233812        0.944085394        -58.8987834        0.944085394        -58.8987834        0.304320592         120.460034
1.11e+09       0.311017923        -60.3724487         0.94440014        -60.5387607         0.94440014        -60.5387607        0.303002136         118.810546
1.14e+09       0.309671405        -62.0223493        0.944725332        -62.1793689        0.944725332        -62.1793689        0.301653567         117.160488
1.17e+09       0.308288874        -63.6730852         0.94506071         -63.820625         0.94506071         -63.820625        0.300274967         115.509835
1.2e+09       0.306870534        -65.3246578        0.945406014        -65.4625451        0.945406014        -65.4625451         0.29886643         113.858565
1.23e+09       0.305416593        -66.9770681        0.945760981        -67.1051453        0.945760981        -67.1051453        0.297428056         112.206656
1.26e+09       0.303927268        -68.6303164        0.946125347        -68.7484409        0.946125347        -68.7484409        0.295959958         110.554085
1.29e+09        0.30240278        -70.2844025        0.946498845        -70.3924467        0.946498845        -70.3924467        0.294462257         108.900831
1.32e+09       0.300843358        -71.9393256        0.946881206         -72.037177        0.946881206         -72.037177        0.292935082         107.246873
1.35e+09       0.299249237        -73.5950842        0.947272159        -73.6826457        0.947272159        -73.6826457        0.291378571         105.592192
1.38e+09       0.297620662        -75.2516763        0.947671429        -75.3288661        0.947671429        -75.3288661        0.289792872         103.936768
1.41e+09       0.295957884        -76.9090993        0.948078739        -76.9758511        0.948078739        -76.9758511         0.28817814         102.280581
1.44e+09       0.294261162        -78.5673499        0.948493809        -78.6236129        0.948493809        -78.6236129         0.28653454         100.623613
1.47e+09       0.292530764        -80.2264242        0.948916356        -80.2721633        0.948916356        -80.2721633        0.284862244         98.9658461
1.5e+09       0.290766967        -81.8863179        0.949346096        -81.9215138        0.949346096        -81.9215138        0.283161433         97.3072621
1.53e+09       0.288970056        -83.5470257        0.949782738        -83.5716749        0.949782738        -83.5716749        0.281432296         95.6478443
1.56e+09       0.287140325        -85.2085421        0.950225993        -85.2226571        0.950225993        -85.2226571        0.279675031         93.9875763
1.59e+09       0.285278079        -86.8708607        0.950675566        -86.8744699        0.950675566        -86.8744699        0.277889845         92.3264422
1.62e+09       0.283383631        -88.5339747        0.951131162        -88.5271227        0.951131162        -88.5271227        0.276076951         90.6644266
1.65e+09       0.281457302        -90.1978765         0.95159248        -90.1806241         0.95159248        -90.1806241        0.274236575         89.0015149
1.68e+09       0.279499426        -91.8625581        0.952059221        -91.8349822        0.952059221        -91.8349822        0.272368947         87.3376928
1.71e+09       0.277510344        -93.5280107         0.95253108        -93.4902047         0.95253108        -93.4902047         0.27047431         85.6729468
1.74e+09        0.27549041        -95.1942249        0.953007752        -95.1462985        0.953007752        -95.1462985        0.268552913          84.007264
1.77e+09       0.273439985        -96.8611909         0.95348893        -96.8032703         0.95348893        -96.8032703        0.266605015          82.340632
1.8e+09       0.271359442         -98.528898        0.953974305        -98.4611259        0.953974305        -98.4611259        0.264630884         80.6730391
1.83e+09       0.269249163        -100.197335        0.954463566        -100.119871        0.954463566        -100.119871        0.262630797         79.0044742
1.86e+09       0.267109543         -101.86649        0.954956401         -101.77951        0.954956401         -101.77951        0.260605041          77.334927
1.89e+09       0.264940986        -103.536351        0.955452497        -103.440047        0.955452497        -103.440047        0.258553912         75.6643875
1.92e+09       0.262743905        -105.206904        0.955951539        -105.101487        0.955951539        -105.101487        0.256477714         73.9928466
1.95e+09       0.260518726        -106.878136        0.956453214        -106.763833        0.956453214        -106.763833        0.254376764         72.3202958
1.98e+09       0.258265886        -108.550033        0.956957204        -108.427086        0.956957204        -108.427086        0.252251384         70.6467274
2.01e+09       0.255985831        -110.222579        0.957463196         -110.09125        0.957463196         -110.09125         0.25010191          68.972134
2.04e+09       0.253679018        -111.895759        0.957970872        -111.756326        0.957970872        -111.756326        0.247928684         67.2965094
2.07e+09       0.251345917        -113.569556        0.958479917        -113.422314        0.958479917        -113.422314        0.245732062         65.6198475
2.1e+09       0.248987008        -115.243954        0.958990015        -115.089216        0.958990015        -115.089216        0.243512407         63.9421434
2.13e+09       0.246602779        -116.918934        0.959500852        -116.757031        0.959500852        -116.757031        0.241270093         62.2633927
2.16e+09       0.244193734        -118.594479        0.960012114        -118.425759        0.960012114        -118.425759        0.239005502         60.5835916
2.19e+09       0.241760385        -120.270569        0.960523489        -120.095398        0.960523489        -120.095398         0.23671903          58.902737
2.22e+09       0.239303254        -121.947185        0.961034663        -121.765947        0.961034663        -121.765947        0.234411079         57.2208268
2.25e+09       0.236822876        -123.624307        0.961545329        -123.437404        0.961545329        -123.437404        0.232082064         55.5378592
2.28e+09       0.234319798        -125.301912        0.962055177        -125.109765        0.962055177        -125.109765        0.229732409         53.8538335
2.31e+09       0.231794573         -126.97998        0.962563902        -126.783028        0.962563902        -126.783028        0.227362549         52.1687494
2.34e+09        0.22924777        -128.658487          0.9630712        -128.457189          0.9630712        -128.457189        0.224972927         50.4826075
2.37e+09       0.226679966        -130.337411        0.963576771        -130.132243        0.963576771        -130.132243        0.222563999         48.7954092
2.4e+09       0.224091748        -132.016727        0.964080317        -131.808185        0.964080317        -131.808185        0.220136228         47.1071563
2.43e+09       0.221483716        -133.696411        0.964581542         -133.48501        0.964581542         -133.48501         0.21769009         45.4178517
2.46e+09       0.218856479        -135.376437        0.965080156        -135.162713        0.965080156        -135.162713         0.21522607         43.7274988
2.49e+09       0.216210656        -137.056778        0.965575871        -136.841287        0.965575871        -136.841287        0.212744661         42.0361019
2.52e+09       0.213546876        -138.737408        0.966068403        -138.520725        0.966068403        -138.520725        0.210246369         40.3436657
2.55e+09       0.210865779        -140.418298        0.966557474         -140.20102        0.966557474         -140.20102        0.207731708         38.6501962
2.58e+09       0.208168014         -142.09942        0.967042807        -141.882164        0.967042807        -141.882164        0.205201202         36.9556995
2.61e+09       0.205454241        -143.780743        0.967524133        -143.564149        0.967524133        -143.564149        0.202655385         35.2601829
2.64e+09       0.202725126        -145.462238        0.968001187        -145.246966        0.968001187        -145.246966          0.2000948         33.5636542
2.67e+09        0.19998135        -147.143872        0.968473708        -146.930606        0.968473708        -146.930606        0.197519999         31.8661221
2.7e+09       0.197223597        -148.825613        0.968941442        -148.615061        0.968941442        -148.615061        0.194931545         30.1675959
2.73e+09       0.194452563        -150.507428        0.969404141        -150.300319        0.969404141        -150.300319        0.192330007         28.4680857
2.76e+09       0.191668953        -152.189283        0.969861562         -151.98637        0.969861562         -151.98637        0.189715966         26.7676024
2.79e+09       0.188873479        -153.871141        0.970313467        -153.673205        0.970313467        -153.673205        0.187090011         25.0661574
2.82e+09       0.186066861        -155.552967        0.970759628        -155.360811        0.970759628        -155.360811        0.184452737         23.3637632
2.85e+09       0.183249827        -157.234722         0.97119982        -157.049178         0.97119982        -157.049178         0.18180475         21.6604327
2.88e+09       0.180423114        -158.916368        0.971633827        -158.738294        0.971633827        -158.738294        0.179146664         19.9561799
2.91e+09       0.177587463        -160.597865        0.972061439        -160.428145        0.972061439        -160.428145          0.1764791         18.2510192
2.94e+09       0.174743624        -162.279171        0.972482454        -162.118722        0.972482454        -162.118722        0.173802687          16.544966
2.97e+09       0.171892353        -163.960244        0.972896677        -163.810009        0.972896677        -163.810009         0.17111806         14.8380363
3e+09       0.169034413        -165.641039        0.973303921        -165.501995        0.973303921        -165.501995        0.168425862         13.1302469
3.03e+09       0.166170571        -167.321511        0.973704007        -167.194666        0.973704007        -167.194666        0.165726745         11.4216155
3.06e+09         0.1633016        -169.001612        0.974096763        -168.888009        0.974096763        -168.888009        0.163021365          9.7121604
3.09e+09        0.16042828        -170.681293        0.974482025         -170.58201        0.974482025         -170.58201        0.160310385         8.00190078
3.12e+09       0.157551392        -172.360504        0.974859639        -172.276655        0.974859639        -172.276655        0.157594472         6.29085657
3.15e+09       0.154671724        -174.039193        0.975229459        -173.971929        0.975229459        -173.971929        0.154874303         4.57904854
3.18e+09       0.151790068        -175.717303        0.975591345        -175.667819        0.975591345        -175.667819        0.152150556         2.86649824
3.21e+09       0.148907217        -177.394778        0.975945169         -177.36431        0.975945169         -177.36431        0.149423917         1.15322809
3.24e+09        0.14602397        -179.071558         0.97629081        -179.061388         0.97629081        -179.061388        0.146695075       -0.560738638
3.27e+09       0.143141126         179.252417        0.976628155         179.240964        0.976628155         179.240964        0.143964723        -2.27537781
3.3e+09       0.140259488         177.577215        0.976957103         177.542759        0.976957103         177.542759        0.141233558        -3.99066439
3.33e+09       0.137379859         175.902901        0.977277558         175.844012        0.977277558         175.844012        0.138502283        -5.70657237
3.36e+09       0.134503045         174.229547        0.977589436         174.144739        0.977589436         174.144739        0.135771601        -7.42307482
3.39e+09       0.131629851         172.557229        0.977892661         172.444955        0.977892661         172.444955        0.133042219        -9.14014378
3.42e+09       0.128761085         170.886024        0.978187166         170.744674        0.978187166         170.744674        0.130314847        -10.8577502
3.45e+09       0.125897552         169.216016        0.978472893         169.043913        0.978472893         169.043913        0.127590195        -12.5758641
3.48e+09       0.123040058         167.547292        0.978749792         167.342686        0.978749792         167.342686        0.124868978         -14.294454
3.51e+09       0.120189408         165.879945        0.979017826         165.641009        0.979017826         165.641009        0.122151909        -16.0134875
3.54e+09       0.117346406         164.214072        0.979276962         163.938897        0.979276962         163.938897        0.119439703        -17.7329308
3.57e+09       0.114511851          162.54978         0.97952718         162.236364         0.97952718         162.236364        0.116733077        -19.4527487
3.6e+09       0.111686545         160.887178        0.979768465         160.533426        0.979768465         160.533426        0.114032745        -21.1729043
3.63e+09       0.108871281         159.226386        0.980000816         158.830099        0.980000816         158.830099        0.111339422        -22.8933596
